
T0854 000:310 SEGGER J-Link V4.96d Log File (0000ms, 0262ms total)
T0854 000:310 DLL Compiled: Jan 29 2015 11:45:37 (0000ms, 0262ms total)
T0854 000:310 Logging started @ 2016-08-23 10:17 (0000ms, 0262ms total)
T0854 000:310 JLINK_SetWarnOutHandler(...) (0000ms, 0262ms total)
T0854 000:310 JLINK_OpenEx(...)
Firmware: J-Link ARM V8 compiled Jan 31 2018 18:34:52
Hardware: V8.00
S/N: 20080643
Feature(s): RDI,FlashDL,FlashBP,JFlash,GDBFull  returns O.K. (0267ms, 0529ms total)
T0854 000:577 JLINK_SetErrorOutHandler(...) (0000ms, 0529ms total)
T0854 000:577 JLINK_ExecCommand("ProjectFile = "G:\下载\3，扩展例程\4，UCOS扩展例程\TEST\SmartSeat\USER\JLinkSettings.ini"", ...)  returns 0x00 (0001ms, 0530ms total)
T0854 000:603 JLINK_ExecCommand("Device = STM32F103RC", ...)Device "STM32F103RC" selected.  returns 0x00 (0007ms, 0537ms total)
T0854 000:610 JLINK_ExecCommand("DisableConnectionTimeout", ...)  returns 0x01 (0000ms, 0537ms total)
T0854 000:610 JLINK_GetHardwareVersion()  returns 0x13880 (0000ms, 0537ms total)
T0854 000:610 JLINK_GetDLLVersion()  returns 49604 (0000ms, 0537ms total)
T0854 000:610 JLINK_GetFirmwareString(...) (0000ms, 0537ms total)
T0854 000:626 JLINK_GetDLLVersion()  returns 49604 (0000ms, 0537ms total)
T0854 000:626 JLINK_GetCompileDateTime() (0000ms, 0537ms total)
T0854 000:629 JLINK_GetFirmwareString(...) (0000ms, 0537ms total)
T0854 000:632 JLINK_GetHardwareVersion()  returns 0x13880 (0000ms, 0537ms total)
T0854 000:644 JLINK_TIF_Select(JLINKARM_TIF_SWD)  returns 0x00 (0002ms, 0539ms total)
T0854 000:646 JLINK_SetSpeed(50000) (0001ms, 0540ms total)
T0854 000:647 JLINK_GetId() >0x108 TIF>Found SWD-DP with ID 0x1BA01477 >0x0D TIF> >0x28 TIF> >0x0D TIF> >0x28 TIF> >0x0D TIF> >0x21 TIF> >0x0D TIF> >0x28 TIF> >0x0D TIF> >0x28 TIF> >0x0D TIF> >0x28 TIF> >0x0D TIF> >0x21 TIF> >0x0D TIF> >0x21 TIF> >0x0D TIF> >0x28 TIF> >0x0D TIF> >0x21 TIF> >0x0D TIF> >0x21 TIF> >0x108 TIF>Found SWD-DP with ID 0x1BA01477 >0x0D TIF> >0x21 TIF> >0x0D TIF> >0x28 TIF> >0x0D TIF> >0x28 TIF> >0x0D TIF> >0x21 TIF> >0x0D TIF> >0x28 TIF> >0x0D TIF> >0x21 TIF> >0x0D TIF> >0x21 TIF>
 >0x0D TIF> >0x21 TIF> >0x0D TIF> >0x28 TIF> >0x0D TIF> >0x21 TIF> >0x0D TIF> >0x28 TIF> >0x0D TIF> >0x28 TIF> >0x0D TIF> >0x21 TIF> >0x0D TIF> >0x28 TIF> >0x0D TIF> >0x28 TIF> >0x0D TIF> >0x28 TIF> >0x0D TIF> >0x21 TIF> >0x0D TIF> >0x21 TIF> >0x0D TIF> >0x28 TIF> >0x0D TIF> >0x21 TIF> >0x0D TIF> >0x21 TIF>Found Cortex-M3 r1p1, Little endian. >0x0D TIF> >0x28 TIF> -- CPU_WriteMem(4 bytes @ 0xE0002000) -- CPU_ReadMem(4 bytes @ 0xE000EDF0) -- CPU_ReadMem(4 bytes @ 0xE0002000)
FPUnit: 6 code (BP) slots and 2 literal slots -- CPU_ReadMem(4 bytes @ 0xE000EDFC) -- CPU_ReadMem(4 bytes @ 0xE0001000) -- CPU_WriteMem(4 bytes @ 0xE0001000) -- CPU_ReadMem(4 bytes @ 0xE000ED88) -- CPU_WriteMem(4 bytes @ 0xE000ED88) -- CPU_ReadMem(4 bytes @ 0xE000ED88) -- CPU_WriteMem(4 bytes @ 0xE000ED88) -- CPU_ReadMem(4 bytes @ 0xE00FF010)TPIU fitted. -- CPU_ReadMem(4 bytes @ 0xE00FF014) -- CPU_ReadMem(4 bytes @ 0xE00FF018) >0x0D TIF> >0x21 TIF>  returns 0x1BA01477 (0050ms, 0590ms total)
T0854 000:697 JLINK_GetDLLVersion()  returns 49604 (0000ms, 0590ms total)
T0854 000:697 JLINK_CORE_GetFound()  returns 0x30000FF (0000ms, 0590ms total)
T0854 000:697 JLINK_GetDebugInfo(0x100) -- Value=0xE00FF003  returns 0x00 (0000ms, 0590ms total)
T0854 000:699 JLINK_ReadMem (0xE00FF000, 0x0020 Bytes, ...) -- CPU is running -- CPU_ReadMem(32 bytes @ 0xE00FF000) - Data: 03 F0 F0 FF 03 20 F0 FF 03 30 F0 FF 03 10 F0 FF ...  returns 0x00 (0001ms, 0591ms total)
T0854 000:700 JLINK_ReadMem (0xE000EFF0, 0x0010 Bytes, ...) -- CPU is running -- CPU_ReadMem(16 bytes @ 0xE000EFF0) - Data: 0D 00 00 00 E0 00 00 00 05 00 00 00 B1 00 00 00  returns 0x00 (0001ms, 0592ms total)
T0854 000:701 JLINK_ReadMem (0xE000EFD0, 0x0020 Bytes, ...) -- CPU is running -- CPU_ReadMem(32 bytes @ 0xE000EFD0) - Data: 04 00 00 00 00 00 00 00 00 00 00 00 00 00 00 00 ...  returns 0x00 (0001ms, 0593ms total)
T0854 000:702 JLINK_ReadMem (0xE0001FF0, 0x0010 Bytes, ...) -- CPU is running -- CPU_ReadMem(16 bytes @ 0xE0001FF0) - Data: 0D 00 00 00 E0 00 00 00 05 00 00 00 B1 00 00 00  returns 0x00 (0000ms, 0593ms total)
T0854 000:702 JLINK_ReadMem (0xE0001FD0, 0x0020 Bytes, ...) -- CPU is running -- CPU_ReadMem(32 bytes @ 0xE0001FD0) - Data: 04 00 00 00 00 00 00 00 00 00 00 00 00 00 00 00 ...  returns 0x00 (0001ms, 0594ms total)
T0854 000:703 JLINK_ReadMem (0xE0002FF0, 0x0010 Bytes, ...) -- CPU is running -- CPU_ReadMem(16 bytes @ 0xE0002FF0) - Data: 0D 00 00 00 E0 00 00 00 05 00 00 00 B1 00 00 00  returns 0x00 (0001ms, 0595ms total)
T0854 000:704 JLINK_ReadMem (0xE0002FD0, 0x0020 Bytes, ...) -- CPU is running -- CPU_ReadMem(32 bytes @ 0xE0002FD0) - Data: 04 00 00 00 00 00 00 00 00 00 00 00 00 00 00 00 ...  returns 0x00 (0001ms, 0596ms total)
T0854 000:705 JLINK_ReadMem (0xE0000FF0, 0x0010 Bytes, ...) -- CPU is running -- CPU_ReadMem(16 bytes @ 0xE0000FF0) - Data: 0D 00 00 00 E0 00 00 00 05 00 00 00 B1 00 00 00  returns 0x00 (0000ms, 0596ms total)
T0854 000:705 JLINK_ReadMem (0xE0000FD0, 0x0020 Bytes, ...) -- CPU is running -- CPU_ReadMem(32 bytes @ 0xE0000FD0) - Data: 04 00 00 00 00 00 00 00 00 00 00 00 00 00 00 00 ...  returns 0x00 (0001ms, 0597ms total)
T0854 000:706 JLINK_ReadMem (0xE0040FF0, 0x0010 Bytes, ...) -- CPU is running -- CPU_ReadMem(16 bytes @ 0xE0040FF0) - Data: 0D 00 00 00 90 00 00 00 05 00 00 00 B1 00 00 00  returns 0x00 (0001ms, 0598ms total)
T0854 000:707 JLINK_ReadMem (0xE0040FD0, 0x0020 Bytes, ...) -- CPU is running -- CPU_ReadMem(32 bytes @ 0xE0040FD0) - Data: 04 00 00 00 00 00 00 00 00 00 00 00 00 00 00 00 ...  returns 0x00 (0001ms, 0599ms total)
T0854 000:708 JLINK_ReadMemU32(0xE000ED00, 0x0001 Items, ...) -- CPU is running -- CPU_ReadMem(4 bytes @ 0xE000ED00) - Data: 31 C2 1F 41  returns 0x01 (0001ms, 0600ms total)
T0854 000:709 JLINK_SetResetType(JLINKARM_RESET_TYPE_NORMAL)  returns JLINKARM_RESET_TYPE_NORMAL (0000ms, 0600ms total)
T0854 000:709 JLINK_Reset() -- CPU_WriteMem(4 bytes @ 0xE0002000) -- CPU_ReadMem(4 bytes @ 0xE000EDFC) -- CPU_WriteMem(4 bytes @ 0xE000EDFC) -- CPU_ReadMem(4 bytes @ 0xE0001000) (0013ms, 0613ms total)
T0854 000:722 JLINK_Halt()  returns 0x00 (0000ms, 0613ms total)
T0854 000:722 JLINK_IsHalted()  returns TRUE (0000ms, 0613ms total)
T0854 000:722 JLINK_ReadMemU32(0xE000EDF0, 0x0001 Items, ...) -- CPU_ReadMem(4 bytes @ 0xE000EDF0) - Data: 03 00 03 00  returns 0x01 (0001ms, 0614ms total)
T0854 000:723 JLINK_WriteU32(0xE000EDF0, 0xA05F0003) -- CPU_WriteMem(4 bytes @ 0xE000EDF0)  returns 0x00 (0000ms, 0614ms total)
T0854 000:723 JLINK_WriteU32(0xE000EDFC, 0x01000000) -- CPU_WriteMem(4 bytes @ 0xE000EDFC)  returns 0x00 (0001ms, 0615ms total)
T0854 000:730 JLINK_GetHWStatus(...)  returns 0x00 (0001ms, 0616ms total)
T0854 000:735 JLINK_GetNumBPUnits(Type = 0xFFFFFF00)  returns 0x06 (0000ms, 0616ms total)
T0854 000:735 JLINK_GetNumBPUnits(Type = 0xF0)  returns 0x2000 (0000ms, 0616ms total)
T0854 000:735 JLINK_GetNumWPUnits()  returns 0x04 (0000ms, 0616ms total)
T0854 000:740 JLINK_GetSpeed()  returns 0xFA0 (0000ms, 0616ms total)
T0854 000:743 JLINK_ReadMemU32(0xE000E004, 0x0001 Items, ...) -- CPU_ReadMem(4 bytes @ 0xE000E004) - Data: 01 00 00 00  returns 0x01 (0001ms, 0617ms total)
T0854 000:744 JLINK_ReadMemU32(0xE000E004, 0x0001 Items, ...) -- CPU_ReadMem(4 bytes @ 0xE000E004) - Data: 01 00 00 00  returns 0x01 (0001ms, 0618ms total)
T0854 000:745 JLINK_WriteMem(0xE0001000, 0x001C Bytes, ...) - Data: 01 00 00 00 00 00 00 00 00 00 00 00 00 00 00 00 ... -- CPU_WriteMem(28 bytes @ 0xE0001000)  returns 0x1C (0001ms, 0619ms total)
T0854 000:746 JLINK_ReadMem (0xE0001000, 0x001C Bytes, ...) -- CPU_ReadMem(28 bytes @ 0xE0001000) - Data: 01 00 00 40 00 00 00 00 00 00 00 00 00 00 00 00 ...  returns 0x00 (0001ms, 0620ms total)
T0854 000:747 JLINK_Halt()  returns 0x00 (0000ms, 0620ms total)
T0854 000:747 JLINK_IsHalted()  returns TRUE (0000ms, 0620ms total)
T0854 000:749 JLINK_WriteMem(0x20000000, 0x0164 Bytes, ...) - Data: 00 BE 0A E0 0D 78 2D 06 68 40 08 24 40 00 00 D3 ... -- CPU_WriteMem(356 bytes @ 0x20000000)  returns 0x164 (0003ms, 0623ms total)
T0854 000:752 JLINK_WriteReg(R0, 0x08000000)  returns 0x00 (0000ms, 0623ms total)
T0854 000:752 JLINK_WriteReg(R1, 0x00B71B00)  returns 0x00 (0000ms, 0623ms total)
T0854 000:752 JLINK_WriteReg(R2, 0x00000001)  returns 0x00 (0000ms, 0623ms total)
T0854 000:752 JLINK_WriteReg(R3, 0x00000000)  returns 0x00 (0000ms, 0623ms total)
T0854 000:752 JLINK_WriteReg(R4, 0x00000000)  returns 0x00 (0000ms, 0623ms total)
T0854 000:752 JLINK_WriteReg(R5, 0x00000000)  returns 0x00 (0000ms, 0623ms total)
T0854 000:752 JLINK_WriteReg(R6, 0x00000000)  returns 0x00 (0000ms, 0623ms total)
T0854 000:752 JLINK_WriteReg(R7, 0x00000000)  returns 0x00 (0000ms, 0623ms total)
T0854 000:752 JLINK_WriteReg(R8, 0x00000000)  returns 0x00 (0000ms, 0623ms total)
T0854 000:752 JLINK_WriteReg(R9, 0x20000160)  returns 0x00 (0000ms, 0623ms total)
T0854 000:752 JLINK_WriteReg(R10, 0x00000000)  returns 0x00 (0000ms, 0623ms total)
T0854 000:752 JLINK_WriteReg(R11, 0x00000000)  returns 0x00 (0000ms, 0623ms total)
T0854 000:752 JLINK_WriteReg(R12, 0x00000000)  returns 0x00 (0000ms, 0623ms total)
T0854 000:752 JLINK_WriteReg(R13 (SP), 0x20001000)  returns 0x00 (0000ms, 0623ms total)
T0854 000:752 JLINK_WriteReg(R14, 0x20000001)  returns 0x00 (0000ms, 0623ms total)
T0854 000:752 JLINK_WriteReg(R15 (PC), 0x20000038)  returns 0x00 (0000ms, 0623ms total)
T0854 000:752 JLINK_WriteReg(XPSR, 0x01000000)  returns 0x00 (0000ms, 0623ms total)
T0854 000:752 JLINK_WriteReg(MSP, 0x20001000)  returns 0x00 (0000ms, 0623ms total)
T0854 000:752 JLINK_WriteReg(PSP, 0x20001000)  returns 0x00 (0000ms, 0623ms total)
T0854 000:752 JLINK_WriteReg(CFBP, 0x00000000)  returns 0x00 (0000ms, 0623ms total)
T0854 000:752 JLINK_SetBPEx(Addr = 0x20000000, Type = 0xFFFFFFF2) -- CPU_ReadMem(2 bytes @ 0x20000000)  returns 0x00000001 (0001ms, 0624ms total)
T0854 000:753 JLINK_Go() -- CPU_WriteMem(2 bytes @ 0x20000000) -- CPU_WriteMem(4 bytes @ 0xE0002008) -- CPU_WriteMem(4 bytes @ 0xE000200C) -- CPU_WriteMem(4 bytes @ 0xE0002010) -- CPU_WriteMem(4 bytes @ 0xE0002014) -- CPU_WriteMem(4 bytes @ 0xE0002018) -- CPU_WriteMem(4 bytes @ 0xE000201C) -- CPU_WriteMem(4 bytes @ 0xE0001004) (0006ms, 0630ms total)
T0854 000:759 JLINK_IsHalted() -- CPU_ReadMem(2 bytes @ 0x20000000)  returns TRUE (0004ms, 0634ms total)
T0854 000:763 JLINK_ReadReg(R15 (PC))  returns 0x20000000 (0000ms, 0630ms total)
T0854 000:763 JLINK_ClrBPEx(BPHandle = 0x00000001)  returns 0x00 (0000ms, 0630ms total)
T0854 000:763 JLINK_ReadReg(R0)  returns 0x00000000 (0000ms, 0630ms total)
T0854 000:763 JLINK_WriteReg(R0, 0x08000000)  returns 0x00 (0000ms, 0630ms total)
T0854 000:763 JLINK_WriteReg(R1, 0x00B71B00)  returns 0x00 (0000ms, 0630ms total)
T0854 000:763 JLINK_WriteReg(R2, 0x00000001)  returns 0x00 (0000ms, 0630ms total)
T0854 000:763 JLINK_WriteReg(R3, 0x00000000)  returns 0x00 (0000ms, 0630ms total)
T0854 000:763 JLINK_WriteReg(R4, 0x00000000)  returns 0x00 (0000ms, 0630ms total)
T0854 000:763 JLINK_WriteReg(R5, 0x00000000)  returns 0x00 (0000ms, 0630ms total)
T0854 000:763 JLINK_WriteReg(R6, 0x00000000)  returns 0x00 (0000ms, 0630ms total)
T0854 000:763 JLINK_WriteReg(R7, 0x00000000)  returns 0x00 (0000ms, 0630ms total)
T0854 000:763 JLINK_WriteReg(R8, 0x00000000)  returns 0x00 (0000ms, 0630ms total)
T0854 000:763 JLINK_WriteReg(R9, 0x20000160)  returns 0x00 (0000ms, 0630ms total)
T0854 000:763 JLINK_WriteReg(R10, 0x00000000)  returns 0x00 (0000ms, 0630ms total)
T0854 000:763 JLINK_WriteReg(R11, 0x00000000)  returns 0x00 (0000ms, 0630ms total)
T0854 000:763 JLINK_WriteReg(R12, 0x00000000)  returns 0x00 (0000ms, 0630ms total)
T0854 000:763 JLINK_WriteReg(R13 (SP), 0x20001000)  returns 0x00 (0000ms, 0630ms total)
T0854 000:763 JLINK_WriteReg(R14, 0x20000001)  returns 0x00 (0000ms, 0630ms total)
T0854 000:763 JLINK_WriteReg(R15 (PC), 0x2000007C)  returns 0x00 (0000ms, 0630ms total)
T0854 000:763 JLINK_WriteReg(XPSR, 0x01000000)  returns 0x00 (0000ms, 0630ms total)
T0854 000:763 JLINK_WriteReg(MSP, 0x20001000)  returns 0x00 (0000ms, 0630ms total)
T0854 000:763 JLINK_WriteReg(PSP, 0x20001000)  returns 0x00 (0000ms, 0630ms total)
T0854 000:763 JLINK_WriteReg(CFBP, 0x00000000)  returns 0x00 (0000ms, 0630ms total)
T0854 000:763 JLINK_SetBPEx(Addr = 0x20000000, Type = 0xFFFFFFF2)  returns 0x00000002 (0000ms, 0630ms total)
T0854 000:763 JLINK_Go() (0002ms, 0632ms total)
T0854 000:765 JLINK_IsHalted()  returns FALSE (0000ms, 0632ms total)
T0854 000:813 JLINK_IsHalted() -- CPU_ReadMem(2 bytes @ 0x20000000)  returns TRUE (0004ms, 0636ms total)
T0854 000:817 JLINK_ReadReg(R15 (PC))  returns 0x20000000 (0000ms, 0632ms total)
T0854 000:817 JLINK_ClrBPEx(BPHandle = 0x00000002)  returns 0x00 (0000ms, 0632ms total)
T0854 000:817 JLINK_ReadReg(R0)  returns 0x00000000 (0000ms, 0632ms total)
T0854 000:869 JLINK_WriteReg(R0, 0x00000001)  returns 0x00 (0000ms, 0632ms total)
T0854 000:869 JLINK_WriteReg(R1, 0x00B71B00)  returns 0x00 (0000ms, 0632ms total)
T0854 000:869 JLINK_WriteReg(R2, 0x00000001)  returns 0x00 (0000ms, 0632ms total)
T0854 000:869 JLINK_WriteReg(R3, 0x00000000)  returns 0x00 (0000ms, 0632ms total)
T0854 000:869 JLINK_WriteReg(R4, 0x00000000)  returns 0x00 (0000ms, 0632ms total)
T0854 000:869 JLINK_WriteReg(R5, 0x00000000)  returns 0x00 (0000ms, 0632ms total)
T0854 000:869 JLINK_WriteReg(R6, 0x00000000)  returns 0x00 (0000ms, 0632ms total)
T0854 000:869 JLINK_WriteReg(R7, 0x00000000)  returns 0x00 (0000ms, 0632ms total)
T0854 000:869 JLINK_WriteReg(R8, 0x00000000)  returns 0x00 (0000ms, 0632ms total)
T0854 000:869 JLINK_WriteReg(R9, 0x20000160)  returns 0x00 (0000ms, 0632ms total)
T0854 000:869 JLINK_WriteReg(R10, 0x00000000)  returns 0x00 (0000ms, 0632ms total)
T0854 000:869 JLINK_WriteReg(R11, 0x00000000)  returns 0x00 (0000ms, 0632ms total)
T0854 000:869 JLINK_WriteReg(R12, 0x00000000)  returns 0x00 (0000ms, 0632ms total)
T0854 000:869 JLINK_WriteReg(R13 (SP), 0x20001000)  returns 0x00 (0000ms, 0632ms total)
T0854 000:869 JLINK_WriteReg(R14, 0x20000001)  returns 0x00 (0001ms, 0633ms total)
T0854 000:870 JLINK_WriteReg(R15 (PC), 0x2000006A)  returns 0x00 (0000ms, 0633ms total)
T0854 000:870 JLINK_WriteReg(XPSR, 0x01000000)  returns 0x00 (0000ms, 0633ms total)
T0854 000:870 JLINK_WriteReg(MSP, 0x20001000)  returns 0x00 (0000ms, 0633ms total)
T0854 000:870 JLINK_WriteReg(PSP, 0x20001000)  returns 0x00 (0000ms, 0633ms total)
T0854 000:870 JLINK_WriteReg(CFBP, 0x00000000)  returns 0x00 (0000ms, 0633ms total)
T0854 000:870 JLINK_SetBPEx(Addr = 0x20000000, Type = 0xFFFFFFF2)  returns 0x00000003 (0000ms, 0633ms total)
T0854 000:870 JLINK_Go() (0002ms, 0635ms total)
T0854 000:872 JLINK_IsHalted() -- CPU_ReadMem(2 bytes @ 0x20000000)  returns TRUE (0005ms, 0640ms total)
T0854 000:877 JLINK_ReadReg(R15 (PC))  returns 0x20000000 (0000ms, 0635ms total)
T0854 000:877 JLINK_ClrBPEx(BPHandle = 0x00000003)  returns 0x00 (0000ms, 0635ms total)
T0854 000:877 JLINK_ReadReg(R0)  returns 0x00000000 (0000ms, 0635ms total)
T0854 000:888 JLINK_WriteMem(0x20000000, 0x0164 Bytes, ...) - Data: 00 BE 0A E0 0D 78 2D 06 68 40 08 24 40 00 00 D3 ... -- CPU_WriteMem(356 bytes @ 0x20000000)  returns 0x164 (0003ms, 0638ms total)
T0854 000:892 JLINK_WriteReg(R0, 0x08000000)  returns 0x00 (0000ms, 0638ms total)
T0854 000:892 JLINK_WriteReg(R1, 0x00B71B00)  returns 0x00 (0000ms, 0638ms total)
T0854 000:892 JLINK_WriteReg(R2, 0x00000002)  returns 0x00 (0000ms, 0638ms total)
T0854 000:892 JLINK_WriteReg(R3, 0x00000000)  returns 0x00 (0000ms, 0638ms total)
T0854 000:892 JLINK_WriteReg(R4, 0x00000000)  returns 0x00 (0000ms, 0638ms total)
T0854 000:892 JLINK_WriteReg(R5, 0x00000000)  returns 0x00 (0000ms, 0638ms total)
T0854 000:892 JLINK_WriteReg(R6, 0x00000000)  returns 0x00 (0001ms, 0639ms total)
T0854 000:893 JLINK_WriteReg(R7, 0x00000000)  returns 0x00 (0000ms, 0639ms total)
T0854 000:893 JLINK_WriteReg(R8, 0x00000000)  returns 0x00 (0000ms, 0639ms total)
T0854 000:893 JLINK_WriteReg(R9, 0x20000160)  returns 0x00 (0000ms, 0639ms total)
T0854 000:893 JLINK_WriteReg(R10, 0x00000000)  returns 0x00 (0000ms, 0639ms total)
T0854 000:893 JLINK_WriteReg(R11, 0x00000000)  returns 0x00 (0000ms, 0639ms total)
T0854 000:893 JLINK_WriteReg(R12, 0x00000000)  returns 0x00 (0000ms, 0639ms total)
T0854 000:893 JLINK_WriteReg(R13 (SP), 0x20001000)  returns 0x00 (0000ms, 0639ms total)
T0854 000:893 JLINK_WriteReg(R14, 0x20000001)  returns 0x00 (0000ms, 0639ms total)
T0854 000:893 JLINK_WriteReg(R15 (PC), 0x20000038)  returns 0x00 (0000ms, 0639ms total)
T0854 000:893 JLINK_WriteReg(XPSR, 0x01000000)  returns 0x00 (0000ms, 0639ms total)
T0854 000:893 JLINK_WriteReg(MSP, 0x20001000)  returns 0x00 (0001ms, 0640ms total)
T0854 000:894 JLINK_WriteReg(PSP, 0x20001000)  returns 0x00 (0000ms, 0640ms total)
T0854 000:894 JLINK_WriteReg(CFBP, 0x00000000)  returns 0x00 (0000ms, 0640ms total)
T0854 000:894 JLINK_SetBPEx(Addr = 0x20000000, Type = 0xFFFFFFF2) -- CPU_ReadMem(2 bytes @ 0x20000000)  returns 0x00000004 (0001ms, 0641ms total)
T0854 000:895 JLINK_Go() -- CPU_WriteMem(2 bytes @ 0x20000000) (0002ms, 0643ms total)
T0854 000:897 JLINK_IsHalted() -- CPU_ReadMem(2 bytes @ 0x20000000)  returns TRUE (0005ms, 0648ms total)
T0854 000:902 JLINK_ReadReg(R15 (PC))  returns 0x20000000 (0000ms, 0643ms total)
T0854 000:902 JLINK_ClrBPEx(BPHandle = 0x00000004)  returns 0x00 (0000ms, 0643ms total)
T0854 000:902 JLINK_ReadReg(R0)  returns 0x00000000 (0000ms, 0643ms total)
T0854 000:903 JLINK_WriteMem(0x20000164, 0x0400 Bytes, ...) - Data: 78 4B 00 20 0D 32 00 08 ED 15 00 08 EF 15 00 08 ... -- CPU_WriteMem(1024 bytes @ 0x20000164)  returns 0x400 (0007ms, 0650ms total)
T0854 000:910 JLINK_WriteReg(R0, 0x08000000)  returns 0x00 (0000ms, 0650ms total)
T0854 000:910 JLINK_WriteReg(R1, 0x00000400)  returns 0x00 (0000ms, 0650ms total)
T0854 000:910 JLINK_WriteReg(R2, 0x20000164)  returns 0x00 (0000ms, 0650ms total)
T0854 000:910 JLINK_WriteReg(R3, 0x00000000)  returns 0x00 (0000ms, 0650ms total)
T0854 000:910 JLINK_WriteReg(R4, 0x00000000)  returns 0x00 (0000ms, 0650ms total)
T0854 000:910 JLINK_WriteReg(R5, 0x00000000)  returns 0x00 (0000ms, 0650ms total)
T0854 000:910 JLINK_WriteReg(R6, 0x00000000)  returns 0x00 (0000ms, 0650ms total)
T0854 000:910 JLINK_WriteReg(R7, 0x00000000)  returns 0x00 (0000ms, 0650ms total)
T0854 000:910 JLINK_WriteReg(R8, 0x00000000)  returns 0x00 (0000ms, 0650ms total)
T0854 000:910 JLINK_WriteReg(R9, 0x20000160)  returns 0x00 (0000ms, 0650ms total)
T0854 000:910 JLINK_WriteReg(R10, 0x00000000)  returns 0x00 (0000ms, 0650ms total)
T0854 000:910 JLINK_WriteReg(R11, 0x00000000)  returns 0x00 (0000ms, 0650ms total)
T0854 000:910 JLINK_WriteReg(R12, 0x00000000)  returns 0x00 (0000ms, 0650ms total)
T0854 000:910 JLINK_WriteReg(R13 (SP), 0x20001000)  returns 0x00 (0000ms, 0650ms total)
T0854 000:910 JLINK_WriteReg(R14, 0x20000001)  returns 0x00 (0001ms, 0651ms total)
T0854 000:911 JLINK_WriteReg(R15 (PC), 0x200000F4)  returns 0x00 (0000ms, 0651ms total)
T0854 000:911 JLINK_WriteReg(XPSR, 0x01000000)  returns 0x00 (0000ms, 0651ms total)
T0854 000:911 JLINK_WriteReg(MSP, 0x20001000)  returns 0x00 (0000ms, 0651ms total)
T0854 000:911 JLINK_WriteReg(PSP, 0x20001000)  returns 0x00 (0000ms, 0651ms total)
T0854 000:911 JLINK_WriteReg(CFBP, 0x00000000)  returns 0x00 (0000ms, 0651ms total)
T0854 000:911 JLINK_SetBPEx(Addr = 0x20000000, Type = 0xFFFFFFF2)  returns 0x00000005 (0000ms, 0651ms total)
T0854 000:911 JLINK_Go() (0002ms, 0653ms total)
T0854 000:913 JLINK_IsHalted()  returns FALSE (0001ms, 0654ms total)
T0854 000:986 JLINK_IsHalted() -- CPU_ReadMem(2 bytes @ 0x20000000)  returns TRUE (0005ms, 0658ms total)
T0854 000:991 JLINK_ReadReg(R15 (PC))  returns 0x20000000 (0000ms, 0653ms total)
T0854 000:991 JLINK_ClrBPEx(BPHandle = 0x00000005)  returns 0x00 (0000ms, 0653ms total)
T0854 000:991 JLINK_ReadReg(R0)  returns 0x00000000 (0000ms, 0653ms total)
T0854 000:991 JLINK_WriteMem(0x20000164, 0x0400 Bytes, ...) - Data: 08 70 9B 48 00 68 20 F4 70 40 99 49 08 60 08 46 ... -- CPU_WriteMem(1024 bytes @ 0x20000164)  returns 0x400 (0007ms, 0660ms total)
T0854 000:998 JLINK_WriteReg(R0, 0x08000400)  returns 0x00 (0000ms, 0660ms total)
T0854 000:998 JLINK_WriteReg(R1, 0x00000400)  returns 0x00 (0000ms, 0660ms total)
T0854 000:998 JLINK_WriteReg(R2, 0x20000164)  returns 0x00 (0000ms, 0660ms total)
T0854 000:998 JLINK_WriteReg(R3, 0x00000000)  returns 0x00 (0000ms, 0660ms total)
T0854 000:998 JLINK_WriteReg(R4, 0x00000000)  returns 0x00 (0000ms, 0660ms total)
T0854 000:998 JLINK_WriteReg(R5, 0x00000000)  returns 0x00 (0000ms, 0660ms total)
T0854 000:998 JLINK_WriteReg(R6, 0x00000000)  returns 0x00 (0000ms, 0660ms total)
T0854 000:998 JLINK_WriteReg(R7, 0x00000000)  returns 0x00 (0000ms, 0660ms total)
T0854 000:998 JLINK_WriteReg(R8, 0x00000000)  returns 0x00 (0000ms, 0660ms total)
T0854 000:998 JLINK_WriteReg(R9, 0x20000160)  returns 0x00 (0000ms, 0660ms total)
T0854 000:998 JLINK_WriteReg(R10, 0x00000000)  returns 0x00 (0000ms, 0660ms total)
T0854 000:998 JLINK_WriteReg(R11, 0x00000000)  returns 0x00 (0000ms, 0660ms total)
T0854 000:998 JLINK_WriteReg(R12, 0x00000000)  returns 0x00 (0000ms, 0660ms total)
T0854 000:998 JLINK_WriteReg(R13 (SP), 0x20001000)  returns 0x00 (0000ms, 0660ms total)
T0854 000:998 JLINK_WriteReg(R14, 0x20000001)  returns 0x00 (0000ms, 0660ms total)
T0854 000:998 JLINK_WriteReg(R15 (PC), 0x200000F4)  returns 0x00 (0000ms, 0660ms total)
T0854 000:998 JLINK_WriteReg(XPSR, 0x01000000)  returns 0x00 (0000ms, 0660ms total)
T0854 000:998 JLINK_WriteReg(MSP, 0x20001000)  returns 0x00 (0000ms, 0660ms total)
T0854 000:998 JLINK_WriteReg(PSP, 0x20001000)  returns 0x00 (0000ms, 0660ms total)
T0854 000:998 JLINK_WriteReg(CFBP, 0x00000000)  returns 0x00 (0000ms, 0660ms total)
T0854 000:998 JLINK_SetBPEx(Addr = 0x20000000, Type = 0xFFFFFFF2)  returns 0x00000006 (0000ms, 0660ms total)
T0854 000:998 JLINK_Go() (0002ms, 0662ms total)
T0854 001:000 JLINK_IsHalted()  returns FALSE (0000ms, 0662ms total)
T0854 001:018 JLINK_IsHalted()  returns FALSE (0001ms, 0663ms total)
T0854 001:021 JLINK_IsHalted()  returns FALSE (0000ms, 0662ms total)
T0854 001:023 JLINK_IsHalted()  returns FALSE (0001ms, 0663ms total)
T0854 001:026 JLINK_IsHalted()  returns FALSE (0000ms, 0662ms total)
T0854 001:028 JLINK_IsHalted()  returns FALSE (0001ms, 0663ms total)
T0854 001:031 JLINK_IsHalted() -- CPU_ReadMem(2 bytes @ 0x20000000)  returns TRUE (0004ms, 0666ms total)
T0854 001:035 JLINK_ReadReg(R15 (PC))  returns 0x20000000 (0000ms, 0662ms total)
T0854 001:035 JLINK_ClrBPEx(BPHandle = 0x00000006)  returns 0x00 (0000ms, 0662ms total)
T0854 001:035 JLINK_ReadReg(R0)  returns 0x00000000 (0000ms, 0662ms total)
T0854 001:035 JLINK_WriteMem(0x20000164, 0x0400 Bytes, ...) - Data: F1 20 01 F0 C1 F9 02 22 BA 48 01 88 F3 20 01 F0 ... -- CPU_WriteMem(1024 bytes @ 0x20000164)  returns 0x400 (0007ms, 0669ms total)
T0854 001:042 JLINK_WriteReg(R0, 0x08000800)  returns 0x00 (0000ms, 0669ms total)
T0854 001:042 JLINK_WriteReg(R1, 0x00000400)  returns 0x00 (0000ms, 0669ms total)
T0854 001:042 JLINK_WriteReg(R2, 0x20000164)  returns 0x00 (0000ms, 0669ms total)
T0854 001:042 JLINK_WriteReg(R3, 0x00000000)  returns 0x00 (0000ms, 0669ms total)
T0854 001:042 JLINK_WriteReg(R4, 0x00000000)  returns 0x00 (0000ms, 0669ms total)
T0854 001:042 JLINK_WriteReg(R5, 0x00000000)  returns 0x00 (0000ms, 0669ms total)
T0854 001:042 JLINK_WriteReg(R6, 0x00000000)  returns 0x00 (0000ms, 0669ms total)
T0854 001:042 JLINK_WriteReg(R7, 0x00000000)  returns 0x00 (0000ms, 0669ms total)
T0854 001:042 JLINK_WriteReg(R8, 0x00000000)  returns 0x00 (0000ms, 0669ms total)
T0854 001:042 JLINK_WriteReg(R9, 0x20000160)  returns 0x00 (0000ms, 0669ms total)
T0854 001:042 JLINK_WriteReg(R10, 0x00000000)  returns 0x00 (0000ms, 0669ms total)
T0854 001:042 JLINK_WriteReg(R11, 0x00000000)  returns 0x00 (0000ms, 0669ms total)
T0854 001:042 JLINK_WriteReg(R12, 0x00000000)  returns 0x00 (0000ms, 0669ms total)
T0854 001:042 JLINK_WriteReg(R13 (SP), 0x20001000)  returns 0x00 (0000ms, 0669ms total)
T0854 001:042 JLINK_WriteReg(R14, 0x20000001)  returns 0x00 (0000ms, 0669ms total)
T0854 001:042 JLINK_WriteReg(R15 (PC), 0x200000F4)  returns 0x00 (0000ms, 0669ms total)
T0854 001:042 JLINK_WriteReg(XPSR, 0x01000000)  returns 0x00 (0000ms, 0669ms total)
T0854 001:042 JLINK_WriteReg(MSP, 0x20001000)  returns 0x00 (0000ms, 0669ms total)
T0854 001:042 JLINK_WriteReg(PSP, 0x20001000)  returns 0x00 (0000ms, 0669ms total)
T0854 001:042 JLINK_WriteReg(CFBP, 0x00000000)  returns 0x00 (0000ms, 0669ms total)
T0854 001:042 JLINK_SetBPEx(Addr = 0x20000000, Type = 0xFFFFFFF2)  returns 0x00000007 (0000ms, 0669ms total)
T0854 001:042 JLINK_Go() (0002ms, 0671ms total)
T0854 001:044 JLINK_IsHalted()  returns FALSE (0000ms, 0671ms total)
T0854 001:050 JLINK_IsHalted()  returns FALSE (0000ms, 0671ms total)
T0854 001:052 JLINK_IsHalted()  returns FALSE (0000ms, 0671ms total)
T0854 001:054 JLINK_IsHalted()  returns FALSE (0000ms, 0671ms total)
T0854 001:056 JLINK_IsHalted()  returns FALSE (0000ms, 0671ms total)
T0854 001:058 JLINK_IsHalted()  returns FALSE (0000ms, 0671ms total)
T0854 001:060 JLINK_IsHalted()  returns FALSE (0000ms, 0671ms total)
T0854 001:062 JLINK_IsHalted()  returns FALSE (0000ms, 0671ms total)
T0854 001:064 JLINK_IsHalted()  returns FALSE (0001ms, 0672ms total)
T0854 001:067 JLINK_IsHalted()  returns FALSE (0000ms, 0671ms total)
T0854 001:069 JLINK_IsHalted()  returns FALSE (0000ms, 0671ms total)
T0854 001:071 JLINK_IsHalted()  returns FALSE (0000ms, 0671ms total)
T0854 001:073 JLINK_IsHalted()  returns FALSE (0000ms, 0671ms total)
T0854 001:075 JLINK_IsHalted() -- CPU_ReadMem(2 bytes @ 0x20000000)  returns TRUE (0004ms, 0675ms total)
T0854 001:079 JLINK_ReadReg(R15 (PC))  returns 0x20000000 (0000ms, 0671ms total)
T0854 001:079 JLINK_ClrBPEx(BPHandle = 0x00000007)  returns 0x00 (0000ms, 0671ms total)
T0854 001:079 JLINK_ReadReg(R0)  returns 0x00000000 (0000ms, 0671ms total)
T0854 001:080 JLINK_WriteMem(0x20000164, 0x0400 Bytes, ...) - Data: 40 F4 80 50 08 60 01 20 CD 49 C1 F8 AC 01 64 20 ... -- CPU_WriteMem(1024 bytes @ 0x20000164)  returns 0x400 (0006ms, 0677ms total)
T0854 001:086 JLINK_WriteReg(R0, 0x08000C00)  returns 0x00 (0000ms, 0677ms total)
T0854 001:087 JLINK_WriteReg(R1, 0x00000400)  returns 0x00 (0000ms, 0677ms total)
T0854 001:087 JLINK_WriteReg(R2, 0x20000164)  returns 0x00 (0000ms, 0677ms total)
T0854 001:087 JLINK_WriteReg(R3, 0x00000000)  returns 0x00 (0000ms, 0677ms total)
T0854 001:087 JLINK_WriteReg(R4, 0x00000000)  returns 0x00 (0000ms, 0677ms total)
T0854 001:087 JLINK_WriteReg(R5, 0x00000000)  returns 0x00 (0000ms, 0677ms total)
T0854 001:087 JLINK_WriteReg(R6, 0x00000000)  returns 0x00 (0000ms, 0677ms total)
T0854 001:087 JLINK_WriteReg(R7, 0x00000000)  returns 0x00 (0000ms, 0677ms total)
T0854 001:087 JLINK_WriteReg(R8, 0x00000000)  returns 0x00 (0000ms, 0677ms total)
T0854 001:087 JLINK_WriteReg(R9, 0x20000160)  returns 0x00 (0000ms, 0677ms total)
T0854 001:087 JLINK_WriteReg(R10, 0x00000000)  returns 0x00 (0000ms, 0677ms total)
T0854 001:087 JLINK_WriteReg(R11, 0x00000000)  returns 0x00 (0000ms, 0677ms total)
T0854 001:087 JLINK_WriteReg(R12, 0x00000000)  returns 0x00 (0000ms, 0677ms total)
T0854 001:087 JLINK_WriteReg(R13 (SP), 0x20001000)  returns 0x00 (0000ms, 0677ms total)
T0854 001:087 JLINK_WriteReg(R14, 0x20000001)  returns 0x00 (0000ms, 0677ms total)
T0854 001:087 JLINK_WriteReg(R15 (PC), 0x200000F4)  returns 0x00 (0000ms, 0677ms total)
T0854 001:087 JLINK_WriteReg(XPSR, 0x01000000)  returns 0x00 (0000ms, 0677ms total)
T0854 001:087 JLINK_WriteReg(MSP, 0x20001000)  returns 0x00 (0000ms, 0677ms total)
T0854 001:087 JLINK_WriteReg(PSP, 0x20001000)  returns 0x00 (0000ms, 0677ms total)
T0854 001:087 JLINK_WriteReg(CFBP, 0x00000000)  returns 0x00 (0000ms, 0677ms total)
T0854 001:087 JLINK_SetBPEx(Addr = 0x20000000, Type = 0xFFFFFFF2)  returns 0x00000008 (0000ms, 0677ms total)
T0854 001:087 JLINK_Go() (0002ms, 0679ms total)
T0854 001:089 JLINK_IsHalted()  returns FALSE (0001ms, 0680ms total)
T0854 001:097 JLINK_IsHalted()  returns FALSE (0000ms, 0679ms total)
T0854 001:099 JLINK_IsHalted()  returns FALSE (0001ms, 0680ms total)
T0854 001:102 JLINK_IsHalted()  returns FALSE (0001ms, 0680ms total)
T0854 001:105 JLINK_IsHalted()  returns FALSE (0001ms, 0680ms total)
T0854 001:108 JLINK_IsHalted()  returns FALSE (0000ms, 0679ms total)
T0854 001:110 JLINK_IsHalted()  returns FALSE (0001ms, 0680ms total)
T0854 001:156 JLINK_IsHalted() -- CPU_ReadMem(2 bytes @ 0x20000000)  returns TRUE (0005ms, 0684ms total)
T0854 001:161 JLINK_ReadReg(R15 (PC))  returns 0x20000000 (0000ms, 0679ms total)
T0854 001:161 JLINK_ClrBPEx(BPHandle = 0x00000008)  returns 0x00 (0000ms, 0679ms total)
T0854 001:161 JLINK_ReadReg(R0)  returns 0x00000000 (0000ms, 0679ms total)
T0854 001:161 JLINK_WriteMem(0x20000164, 0x0400 Bytes, ...) - Data: E8 4B 1A 80 1A 46 12 88 40 F6 0B 63 9A 42 07 DB ... -- CPU_WriteMem(1024 bytes @ 0x20000164)  returns 0x400 (0007ms, 0686ms total)
T0854 001:168 JLINK_WriteReg(R0, 0x08001000)  returns 0x00 (0000ms, 0686ms total)
T0854 001:168 JLINK_WriteReg(R1, 0x00000400)  returns 0x00 (0000ms, 0686ms total)
T0854 001:168 JLINK_WriteReg(R2, 0x20000164)  returns 0x00 (0000ms, 0686ms total)
T0854 001:168 JLINK_WriteReg(R3, 0x00000000)  returns 0x00 (0000ms, 0686ms total)
T0854 001:168 JLINK_WriteReg(R4, 0x00000000)  returns 0x00 (0000ms, 0686ms total)
T0854 001:168 JLINK_WriteReg(R5, 0x00000000)  returns 0x00 (0000ms, 0686ms total)
T0854 001:168 JLINK_WriteReg(R6, 0x00000000)  returns 0x00 (0000ms, 0686ms total)
T0854 001:168 JLINK_WriteReg(R7, 0x00000000)  returns 0x00 (0000ms, 0686ms total)
T0854 001:168 JLINK_WriteReg(R8, 0x00000000)  returns 0x00 (0000ms, 0686ms total)
T0854 001:168 JLINK_WriteReg(R9, 0x20000160)  returns 0x00 (0000ms, 0686ms total)
T0854 001:168 JLINK_WriteReg(R10, 0x00000000)  returns 0x00 (0000ms, 0686ms total)
T0854 001:168 JLINK_WriteReg(R11, 0x00000000)  returns 0x00 (0000ms, 0686ms total)
T0854 001:168 JLINK_WriteReg(R12, 0x00000000)  returns 0x00 (0000ms, 0686ms total)
T0854 001:168 JLINK_WriteReg(R13 (SP), 0x20001000)  returns 0x00 (0000ms, 0686ms total)
T0854 001:168 JLINK_WriteReg(R14, 0x20000001)  returns 0x00 (0000ms, 0686ms total)
T0854 001:168 JLINK_WriteReg(R15 (PC), 0x200000F4)  returns 0x00 (0000ms, 0686ms total)
T0854 001:168 JLINK_WriteReg(XPSR, 0x01000000)  returns 0x00 (0000ms, 0686ms total)
T0854 001:168 JLINK_WriteReg(MSP, 0x20001000)  returns 0x00 (0000ms, 0686ms total)
T0854 001:168 JLINK_WriteReg(PSP, 0x20001000)  returns 0x00 (0000ms, 0686ms total)
T0854 001:168 JLINK_WriteReg(CFBP, 0x00000000)  returns 0x00 (0000ms, 0686ms total)
T0854 001:168 JLINK_SetBPEx(Addr = 0x20000000, Type = 0xFFFFFFF2)  returns 0x00000009 (0000ms, 0686ms total)
T0854 001:168 JLINK_Go() (0003ms, 0689ms total)
T0854 001:171 JLINK_IsHalted()  returns FALSE (0001ms, 0690ms total)
T0854 001:174 JLINK_IsHalted()  returns FALSE (0000ms, 0689ms total)
T0854 001:176 JLINK_IsHalted()  returns FALSE (0000ms, 0689ms total)
T0854 001:178 JLINK_IsHalted()  returns FALSE (0000ms, 0689ms total)
T0854 001:180 JLINK_IsHalted()  returns FALSE (0000ms, 0689ms total)
T0854 001:182 JLINK_IsHalted()  returns FALSE (0000ms, 0689ms total)
T0854 001:184 JLINK_IsHalted()  returns FALSE (0000ms, 0689ms total)
T0854 001:186 JLINK_IsHalted()  returns FALSE (0000ms, 0689ms total)
T0854 001:188 JLINK_IsHalted()  returns FALSE (0000ms, 0689ms total)
T0854 001:190 JLINK_IsHalted()  returns FALSE (0000ms, 0689ms total)
T0854 001:192 JLINK_IsHalted()  returns FALSE (0000ms, 0689ms total)
T0854 001:194 JLINK_IsHalted()  returns FALSE (0000ms, 0689ms total)
T0854 001:196 JLINK_IsHalted()  returns FALSE (0000ms, 0689ms total)
T0854 001:198 JLINK_IsHalted()  returns FALSE (0000ms, 0689ms total)
T0854 001:200 JLINK_IsHalted()  returns FALSE (0000ms, 0689ms total)
T0854 001:202 JLINK_IsHalted() -- CPU_ReadMem(2 bytes @ 0x20000000)  returns TRUE (0005ms, 0694ms total)
T0854 001:207 JLINK_ReadReg(R15 (PC))  returns 0x20000000 (0000ms, 0689ms total)
T0854 001:207 JLINK_ClrBPEx(BPHandle = 0x00000009)  returns 0x00 (0000ms, 0689ms total)
T0854 001:207 JLINK_ReadReg(R0)  returns 0x00000000 (0000ms, 0689ms total)
T0854 001:207 JLINK_WriteMem(0x20000164, 0x0400 Bytes, ...) - Data: 74 69 6D 65 6F 75 74 00 EC 1D 00 20 74 6D 72 20 ... -- CPU_WriteMem(1024 bytes @ 0x20000164)  returns 0x400 (0006ms, 0695ms total)
T0854 001:213 JLINK_WriteReg(R0, 0x08001400)  returns 0x00 (0000ms, 0695ms total)
T0854 001:213 JLINK_WriteReg(R1, 0x00000400)  returns 0x00 (0000ms, 0695ms total)
T0854 001:213 JLINK_WriteReg(R2, 0x20000164)  returns 0x00 (0000ms, 0695ms total)
T0854 001:213 JLINK_WriteReg(R3, 0x00000000)  returns 0x00 (0000ms, 0695ms total)
T0854 001:213 JLINK_WriteReg(R4, 0x00000000)  returns 0x00 (0000ms, 0695ms total)
T0854 001:213 JLINK_WriteReg(R5, 0x00000000)  returns 0x00 (0000ms, 0695ms total)
T0854 001:213 JLINK_WriteReg(R6, 0x00000000)  returns 0x00 (0000ms, 0695ms total)
T0854 001:213 JLINK_WriteReg(R7, 0x00000000)  returns 0x00 (0000ms, 0695ms total)
T0854 001:213 JLINK_WriteReg(R8, 0x00000000)  returns 0x00 (0000ms, 0695ms total)
T0854 001:213 JLINK_WriteReg(R9, 0x20000160)  returns 0x00 (0000ms, 0695ms total)
T0854 001:213 JLINK_WriteReg(R10, 0x00000000)  returns 0x00 (0000ms, 0695ms total)
T0854 001:213 JLINK_WriteReg(R11, 0x00000000)  returns 0x00 (0000ms, 0695ms total)
T0854 001:213 JLINK_WriteReg(R12, 0x00000000)  returns 0x00 (0000ms, 0695ms total)
T0854 001:213 JLINK_WriteReg(R13 (SP), 0x20001000)  returns 0x00 (0000ms, 0695ms total)
T0854 001:213 JLINK_WriteReg(R14, 0x20000001)  returns 0x00 (0000ms, 0695ms total)
T0854 001:213 JLINK_WriteReg(R15 (PC), 0x200000F4)  returns 0x00 (0000ms, 0695ms total)
T0854 001:213 JLINK_WriteReg(XPSR, 0x01000000)  returns 0x00 (0000ms, 0695ms total)
T0854 001:213 JLINK_WriteReg(MSP, 0x20001000)  returns 0x00 (0000ms, 0695ms total)
T0854 001:213 JLINK_WriteReg(PSP, 0x20001000)  returns 0x00 (0000ms, 0695ms total)
T0854 001:213 JLINK_WriteReg(CFBP, 0x00000000)  returns 0x00 (0000ms, 0695ms total)
T0854 001:213 JLINK_SetBPEx(Addr = 0x20000000, Type = 0xFFFFFFF2)  returns 0x0000000A (0000ms, 0695ms total)
T0854 001:213 JLINK_Go() (0003ms, 0698ms total)
T0854 001:216 JLINK_IsHalted()  returns FALSE (0000ms, 0698ms total)
T0854 001:218 JLINK_IsHalted()  returns FALSE (0000ms, 0698ms total)
T0854 001:220 JLINK_IsHalted()  returns FALSE (0001ms, 0699ms total)
T0854 001:223 JLINK_IsHalted()  returns FALSE (0000ms, 0698ms total)
T0854 001:225 JLINK_IsHalted()  returns FALSE (0000ms, 0698ms total)
T0854 001:270 JLINK_IsHalted() -- CPU_ReadMem(2 bytes @ 0x20000000)  returns TRUE (0004ms, 0702ms total)
T0854 001:274 JLINK_ReadReg(R15 (PC))  returns 0x20000000 (0000ms, 0698ms total)
T0854 001:274 JLINK_ClrBPEx(BPHandle = 0x0000000A)  returns 0x00 (0000ms, 0698ms total)
T0854 001:274 JLINK_ReadReg(R0)  returns 0x00000000 (0000ms, 0698ms total)
T0854 001:275 JLINK_WriteMem(0x20000164, 0x0400 Bytes, ...) - Data: 02 00 69 46 05 48 01 F0 EF FD 4F F4 00 60 AD F8 ... -- CPU_WriteMem(1024 bytes @ 0x20000164)  returns 0x400 (0007ms, 0705ms total)
T0854 001:282 JLINK_WriteReg(R0, 0x08001800)  returns 0x00 (0000ms, 0705ms total)
T0854 001:282 JLINK_WriteReg(R1, 0x00000400)  returns 0x00 (0000ms, 0705ms total)
T0854 001:282 JLINK_WriteReg(R2, 0x20000164)  returns 0x00 (0000ms, 0705ms total)
T0854 001:282 JLINK_WriteReg(R3, 0x00000000)  returns 0x00 (0000ms, 0705ms total)
T0854 001:282 JLINK_WriteReg(R4, 0x00000000)  returns 0x00 (0000ms, 0705ms total)
T0854 001:282 JLINK_WriteReg(R5, 0x00000000)  returns 0x00 (0000ms, 0705ms total)
T0854 001:282 JLINK_WriteReg(R6, 0x00000000)  returns 0x00 (0000ms, 0705ms total)
T0854 001:282 JLINK_WriteReg(R7, 0x00000000)  returns 0x00 (0000ms, 0705ms total)
T0854 001:282 JLINK_WriteReg(R8, 0x00000000)  returns 0x00 (0000ms, 0705ms total)
T0854 001:282 JLINK_WriteReg(R9, 0x20000160)  returns 0x00 (0000ms, 0705ms total)
T0854 001:282 JLINK_WriteReg(R10, 0x00000000)  returns 0x00 (0000ms, 0705ms total)
T0854 001:282 JLINK_WriteReg(R11, 0x00000000)  returns 0x00 (0000ms, 0705ms total)
T0854 001:282 JLINK_WriteReg(R12, 0x00000000)  returns 0x00 (0000ms, 0705ms total)
T0854 001:282 JLINK_WriteReg(R13 (SP), 0x20001000)  returns 0x00 (0000ms, 0705ms total)
T0854 001:282 JLINK_WriteReg(R14, 0x20000001)  returns 0x00 (0000ms, 0705ms total)
T0854 001:282 JLINK_WriteReg(R15 (PC), 0x200000F4)  returns 0x00 (0000ms, 0705ms total)
T0854 001:282 JLINK_WriteReg(XPSR, 0x01000000)  returns 0x00 (0000ms, 0705ms total)
T0854 001:282 JLINK_WriteReg(MSP, 0x20001000)  returns 0x00 (0000ms, 0705ms total)
T0854 001:282 JLINK_WriteReg(PSP, 0x20001000)  returns 0x00 (0000ms, 0705ms total)
T0854 001:282 JLINK_WriteReg(CFBP, 0x00000000)  returns 0x00 (0000ms, 0705ms total)
T0854 001:282 JLINK_SetBPEx(Addr = 0x20000000, Type = 0xFFFFFFF2)  returns 0x0000000B (0000ms, 0705ms total)
T0854 001:282 JLINK_Go() (0002ms, 0707ms total)
T0854 001:284 JLINK_IsHalted()  returns FALSE (0001ms, 0708ms total)
T0854 001:287 JLINK_IsHalted()  returns FALSE (0000ms, 0707ms total)
T0854 001:289 JLINK_IsHalted()  returns FALSE (0000ms, 0707ms total)
T0854 001:291 JLINK_IsHalted()  returns FALSE (0000ms, 0707ms total)
T0854 001:293 JLINK_IsHalted()  returns FALSE (0000ms, 0707ms total)
T0854 001:295 JLINK_IsHalted()  returns FALSE (0000ms, 0707ms total)
T0854 001:297 JLINK_IsHalted()  returns FALSE (0000ms, 0707ms total)
T0854 001:299 JLINK_IsHalted()  returns FALSE (0000ms, 0707ms total)
T0854 001:301 JLINK_IsHalted()  returns FALSE (0000ms, 0707ms total)
T0854 001:303 JLINK_IsHalted()  returns FALSE (0001ms, 0708ms total)
T0854 001:306 JLINK_IsHalted()  returns FALSE (0000ms, 0707ms total)
T0854 001:308 JLINK_IsHalted()  returns FALSE (0000ms, 0707ms total)
T0854 001:310 JLINK_IsHalted()  returns FALSE (0000ms, 0707ms total)
T0854 001:312 JLINK_IsHalted()  returns FALSE (0000ms, 0707ms total)
T0854 001:314 JLINK_IsHalted()  returns FALSE (0000ms, 0707ms total)
T0854 001:316 JLINK_IsHalted() -- CPU_ReadMem(2 bytes @ 0x20000000)  returns TRUE (0003ms, 0710ms total)
T0854 001:319 JLINK_ReadReg(R15 (PC))  returns 0x20000000 (0000ms, 0707ms total)
T0854 001:319 JLINK_ClrBPEx(BPHandle = 0x0000000B)  returns 0x00 (0000ms, 0707ms total)
T0854 001:319 JLINK_ReadReg(R0)  returns 0x00000000 (0000ms, 0707ms total)
T0854 001:320 JLINK_WriteMem(0x20000164, 0x0400 Bytes, ...) - Data: 55 2C 01 D1 00 20 F2 E7 01 20 F0 E7 70 B5 06 46 ... -- CPU_WriteMem(1024 bytes @ 0x20000164)  returns 0x400 (0006ms, 0713ms total)
T0854 001:326 JLINK_WriteReg(R0, 0x08001C00)  returns 0x00 (0000ms, 0713ms total)
T0854 001:326 JLINK_WriteReg(R1, 0x00000400)  returns 0x00 (0000ms, 0713ms total)
T0854 001:326 JLINK_WriteReg(R2, 0x20000164)  returns 0x00 (0000ms, 0713ms total)
T0854 001:326 JLINK_WriteReg(R3, 0x00000000)  returns 0x00 (0000ms, 0713ms total)
T0854 001:326 JLINK_WriteReg(R4, 0x00000000)  returns 0x00 (0000ms, 0713ms total)
T0854 001:326 JLINK_WriteReg(R5, 0x00000000)  returns 0x00 (0001ms, 0714ms total)
T0854 001:327 JLINK_WriteReg(R6, 0x00000000)  returns 0x00 (0000ms, 0714ms total)
T0854 001:327 JLINK_WriteReg(R7, 0x00000000)  returns 0x00 (0000ms, 0714ms total)
T0854 001:327 JLINK_WriteReg(R8, 0x00000000)  returns 0x00 (0000ms, 0714ms total)
T0854 001:327 JLINK_WriteReg(R9, 0x20000160)  returns 0x00 (0000ms, 0714ms total)
T0854 001:327 JLINK_WriteReg(R10, 0x00000000)  returns 0x00 (0000ms, 0714ms total)
T0854 001:327 JLINK_WriteReg(R11, 0x00000000)  returns 0x00 (0000ms, 0714ms total)
T0854 001:327 JLINK_WriteReg(R12, 0x00000000)  returns 0x00 (0000ms, 0714ms total)
T0854 001:327 JLINK_WriteReg(R13 (SP), 0x20001000)  returns 0x00 (0000ms, 0714ms total)
T0854 001:327 JLINK_WriteReg(R14, 0x20000001)  returns 0x00 (0000ms, 0714ms total)
T0854 001:327 JLINK_WriteReg(R15 (PC), 0x200000F4)  returns 0x00 (0000ms, 0714ms total)
T0854 001:327 JLINK_WriteReg(XPSR, 0x01000000)  returns 0x00 (0000ms, 0714ms total)
T0854 001:327 JLINK_WriteReg(MSP, 0x20001000)  returns 0x00 (0000ms, 0714ms total)
T0854 001:327 JLINK_WriteReg(PSP, 0x20001000)  returns 0x00 (0000ms, 0714ms total)
T0854 001:327 JLINK_WriteReg(CFBP, 0x00000000)  returns 0x00 (0000ms, 0714ms total)
T0854 001:327 JLINK_SetBPEx(Addr = 0x20000000, Type = 0xFFFFFFF2)  returns 0x0000000C (0000ms, 0714ms total)
T0854 001:327 JLINK_Go() (0001ms, 0715ms total)
T0854 001:328 JLINK_IsHalted()  returns FALSE (0001ms, 0716ms total)
T0854 001:348 JLINK_IsHalted()  returns FALSE (0000ms, 0715ms total)
T0854 001:350 JLINK_IsHalted()  returns FALSE (0000ms, 0715ms total)
T0854 001:355 JLINK_IsHalted()  returns FALSE (0000ms, 0715ms total)
T0854 001:357 JLINK_IsHalted()  returns FALSE (0001ms, 0716ms total)
T0854 001:360 JLINK_IsHalted() -- CPU_ReadMem(2 bytes @ 0x20000000)  returns TRUE (0004ms, 0719ms total)
T0854 001:364 JLINK_ReadReg(R15 (PC))  returns 0x20000000 (0000ms, 0715ms total)
T0854 001:364 JLINK_ClrBPEx(BPHandle = 0x0000000C)  returns 0x00 (0000ms, 0715ms total)
T0854 001:364 JLINK_ReadReg(R0)  returns 0x00000000 (0000ms, 0715ms total)
T0854 001:365 JLINK_WriteMem(0x20000164, 0x0400 Bytes, ...) - Data: 40 F0 40 50 08 60 01 20 80 49 09 1D 08 60 80 49 ... -- CPU_WriteMem(1024 bytes @ 0x20000164)  returns 0x400 (0006ms, 0721ms total)
T0854 001:371 JLINK_WriteReg(R0, 0x08002000)  returns 0x00 (0000ms, 0721ms total)
T0854 001:371 JLINK_WriteReg(R1, 0x00000400)  returns 0x00 (0000ms, 0721ms total)
T0854 001:371 JLINK_WriteReg(R2, 0x20000164)  returns 0x00 (0000ms, 0721ms total)
T0854 001:371 JLINK_WriteReg(R3, 0x00000000)  returns 0x00 (0000ms, 0721ms total)
T0854 001:371 JLINK_WriteReg(R4, 0x00000000)  returns 0x00 (0000ms, 0721ms total)
T0854 001:371 JLINK_WriteReg(R5, 0x00000000)  returns 0x00 (0001ms, 0722ms total)
T0854 001:372 JLINK_WriteReg(R6, 0x00000000)  returns 0x00 (0000ms, 0722ms total)
T0854 001:372 JLINK_WriteReg(R7, 0x00000000)  returns 0x00 (0000ms, 0722ms total)
T0854 001:372 JLINK_WriteReg(R8, 0x00000000)  returns 0x00 (0000ms, 0722ms total)
T0854 001:372 JLINK_WriteReg(R9, 0x20000160)  returns 0x00 (0000ms, 0722ms total)
T0854 001:372 JLINK_WriteReg(R10, 0x00000000)  returns 0x00 (0000ms, 0722ms total)
T0854 001:372 JLINK_WriteReg(R11, 0x00000000)  returns 0x00 (0000ms, 0722ms total)
T0854 001:372 JLINK_WriteReg(R12, 0x00000000)  returns 0x00 (0000ms, 0722ms total)
T0854 001:372 JLINK_WriteReg(R13 (SP), 0x20001000)  returns 0x00 (0000ms, 0722ms total)
T0854 001:372 JLINK_WriteReg(R14, 0x20000001)  returns 0x00 (0000ms, 0722ms total)
T0854 001:372 JLINK_WriteReg(R15 (PC), 0x200000F4)  returns 0x00 (0000ms, 0722ms total)
T0854 001:372 JLINK_WriteReg(XPSR, 0x01000000)  returns 0x00 (0000ms, 0722ms total)
T0854 001:372 JLINK_WriteReg(MSP, 0x20001000)  returns 0x00 (0000ms, 0722ms total)
T0854 001:372 JLINK_WriteReg(PSP, 0x20001000)  returns 0x00 (0000ms, 0722ms total)
T0854 001:372 JLINK_WriteReg(CFBP, 0x00000000)  returns 0x00 (0000ms, 0722ms total)
T0854 001:372 JLINK_SetBPEx(Addr = 0x20000000, Type = 0xFFFFFFF2)  returns 0x0000000D (0000ms, 0722ms total)
T0854 001:372 JLINK_Go() (0001ms, 0723ms total)
T0854 001:373 JLINK_IsHalted()  returns FALSE (0001ms, 0724ms total)
T0854 001:379 JLINK_IsHalted()  returns FALSE (0000ms, 0723ms total)
T0854 001:381 JLINK_IsHalted()  returns FALSE (0000ms, 0723ms total)
T0854 001:383 JLINK_IsHalted()  returns FALSE (0001ms, 0724ms total)
T0854 001:386 JLINK_IsHalted()  returns FALSE (0000ms, 0723ms total)
T0854 001:388 JLINK_IsHalted()  returns FALSE (0001ms, 0724ms total)
T0854 001:391 JLINK_IsHalted()  returns FALSE (0000ms, 0723ms total)
T0854 001:393 JLINK_IsHalted()  returns FALSE (0000ms, 0723ms total)
T0854 001:395 JLINK_IsHalted()  returns FALSE (0000ms, 0723ms total)
T0854 001:397 JLINK_IsHalted()  returns FALSE (0000ms, 0723ms total)
T0854 001:399 JLINK_IsHalted()  returns FALSE (0001ms, 0724ms total)
T0854 001:402 JLINK_IsHalted()  returns FALSE (0000ms, 0723ms total)
T0854 001:404 JLINK_IsHalted()  returns FALSE (0000ms, 0723ms total)
T0854 001:406 JLINK_IsHalted() -- CPU_ReadMem(2 bytes @ 0x20000000)  returns TRUE (0004ms, 0727ms total)
T0854 001:410 JLINK_ReadReg(R15 (PC))  returns 0x20000000 (0000ms, 0723ms total)
T0854 001:410 JLINK_ClrBPEx(BPHandle = 0x0000000D)  returns 0x00 (0000ms, 0723ms total)
T0854 001:410 JLINK_ReadReg(R0)  returns 0x00000000 (0000ms, 0723ms total)
T0854 001:410 JLINK_WriteMem(0x20000164, 0x0400 Bytes, ...) - Data: 01 FB 12 00 65 49 08 55 08 46 00 5D 00 EB 05 10 ... -- CPU_WriteMem(1024 bytes @ 0x20000164)  returns 0x400 (0007ms, 0730ms total)
T0854 001:417 JLINK_WriteReg(R0, 0x08002400)  returns 0x00 (0000ms, 0730ms total)
T0854 001:417 JLINK_WriteReg(R1, 0x00000400)  returns 0x00 (0000ms, 0730ms total)
T0854 001:417 JLINK_WriteReg(R2, 0x20000164)  returns 0x00 (0000ms, 0730ms total)
T0854 001:417 JLINK_WriteReg(R3, 0x00000000)  returns 0x00 (0000ms, 0730ms total)
T0854 001:417 JLINK_WriteReg(R4, 0x00000000)  returns 0x00 (0000ms, 0730ms total)
T0854 001:417 JLINK_WriteReg(R5, 0x00000000)  returns 0x00 (0000ms, 0730ms total)
T0854 001:417 JLINK_WriteReg(R6, 0x00000000)  returns 0x00 (0000ms, 0730ms total)
T0854 001:417 JLINK_WriteReg(R7, 0x00000000)  returns 0x00 (0000ms, 0730ms total)
T0854 001:417 JLINK_WriteReg(R8, 0x00000000)  returns 0x00 (0000ms, 0730ms total)
T0854 001:417 JLINK_WriteReg(R9, 0x20000160)  returns 0x00 (0000ms, 0730ms total)
T0854 001:417 JLINK_WriteReg(R10, 0x00000000)  returns 0x00 (0000ms, 0730ms total)
T0854 001:417 JLINK_WriteReg(R11, 0x00000000)  returns 0x00 (0000ms, 0730ms total)
T0854 001:417 JLINK_WriteReg(R12, 0x00000000)  returns 0x00 (0000ms, 0730ms total)
T0854 001:417 JLINK_WriteReg(R13 (SP), 0x20001000)  returns 0x00 (0000ms, 0730ms total)
T0854 001:417 JLINK_WriteReg(R14, 0x20000001)  returns 0x00 (0000ms, 0730ms total)
T0854 001:417 JLINK_WriteReg(R15 (PC), 0x200000F4)  returns 0x00 (0000ms, 0730ms total)
T0854 001:417 JLINK_WriteReg(XPSR, 0x01000000)  returns 0x00 (0000ms, 0730ms total)
T0854 001:417 JLINK_WriteReg(MSP, 0x20001000)  returns 0x00 (0000ms, 0730ms total)
T0854 001:417 JLINK_WriteReg(PSP, 0x20001000)  returns 0x00 (0000ms, 0730ms total)
T0854 001:417 JLINK_WriteReg(CFBP, 0x00000000)  returns 0x00 (0000ms, 0730ms total)
T0854 001:417 JLINK_SetBPEx(Addr = 0x20000000, Type = 0xFFFFFFF2)  returns 0x0000000E (0000ms, 0730ms total)
T0854 001:417 JLINK_Go() (0002ms, 0732ms total)
T0854 001:419 JLINK_IsHalted()  returns FALSE (0000ms, 0732ms total)
T0854 001:421 JLINK_IsHalted()  returns FALSE (0000ms, 0732ms total)
T0854 001:423 JLINK_IsHalted()  returns FALSE (0000ms, 0732ms total)
T0854 001:427 JLINK_IsHalted()  returns FALSE (0000ms, 0732ms total)
T0854 001:429 JLINK_IsHalted()  returns FALSE (0001ms, 0733ms total)
T0854 001:432 JLINK_IsHalted()  returns FALSE (0000ms, 0732ms total)
T0854 001:434 JLINK_IsHalted()  returns FALSE (0001ms, 0733ms total)
T0854 001:437 JLINK_IsHalted()  returns FALSE (0000ms, 0732ms total)
T0854 001:439 JLINK_IsHalted()  returns FALSE (0000ms, 0732ms total)
T0854 001:441 JLINK_IsHalted()  returns FALSE (0000ms, 0732ms total)
T0854 001:443 JLINK_IsHalted()  returns FALSE (0000ms, 0732ms total)
T0854 001:445 JLINK_IsHalted()  returns FALSE (0000ms, 0732ms total)
T0854 001:463 JLINK_IsHalted() -- CPU_ReadMem(2 bytes @ 0x20000000)  returns TRUE (0004ms, 0736ms total)
T0854 001:467 JLINK_ReadReg(R15 (PC))  returns 0x20000000 (0000ms, 0732ms total)
T0854 001:467 JLINK_ClrBPEx(BPHandle = 0x0000000E)  returns 0x00 (0000ms, 0732ms total)
T0854 001:467 JLINK_ReadReg(R0)  returns 0x00000000 (0000ms, 0732ms total)
T0854 001:468 JLINK_WriteMem(0x20000164, 0x0400 Bytes, ...) - Data: 42 FF 10 BD 08 B5 68 46 03 F0 DC FE 08 BD 08 B5 ... -- CPU_WriteMem(1024 bytes @ 0x20000164)  returns 0x400 (0006ms, 0738ms total)
T0854 001:474 JLINK_WriteReg(R0, 0x08002800)  returns 0x00 (0000ms, 0738ms total)
T0854 001:474 JLINK_WriteReg(R1, 0x00000400)  returns 0x00 (0000ms, 0738ms total)
T0854 001:474 JLINK_WriteReg(R2, 0x20000164)  returns 0x00 (0000ms, 0738ms total)
T0854 001:474 JLINK_WriteReg(R3, 0x00000000)  returns 0x00 (0001ms, 0739ms total)
T0854 001:475 JLINK_WriteReg(R4, 0x00000000)  returns 0x00 (0000ms, 0739ms total)
T0854 001:475 JLINK_WriteReg(R5, 0x00000000)  returns 0x00 (0000ms, 0739ms total)
T0854 001:475 JLINK_WriteReg(R6, 0x00000000)  returns 0x00 (0000ms, 0739ms total)
T0854 001:475 JLINK_WriteReg(R7, 0x00000000)  returns 0x00 (0000ms, 0739ms total)
T0854 001:475 JLINK_WriteReg(R8, 0x00000000)  returns 0x00 (0000ms, 0739ms total)
T0854 001:475 JLINK_WriteReg(R9, 0x20000160)  returns 0x00 (0000ms, 0739ms total)
T0854 001:475 JLINK_WriteReg(R10, 0x00000000)  returns 0x00 (0000ms, 0739ms total)
T0854 001:475 JLINK_WriteReg(R11, 0x00000000)  returns 0x00 (0000ms, 0739ms total)
T0854 001:475 JLINK_WriteReg(R12, 0x00000000)  returns 0x00 (0000ms, 0739ms total)
T0854 001:475 JLINK_WriteReg(R13 (SP), 0x20001000)  returns 0x00 (0000ms, 0739ms total)
T0854 001:475 JLINK_WriteReg(R14, 0x20000001)  returns 0x00 (0000ms, 0739ms total)
T0854 001:475 JLINK_WriteReg(R15 (PC), 0x200000F4)  returns 0x00 (0000ms, 0739ms total)
T0854 001:475 JLINK_WriteReg(XPSR, 0x01000000)  returns 0x00 (0000ms, 0739ms total)
T0854 001:475 JLINK_WriteReg(MSP, 0x20001000)  returns 0x00 (0000ms, 0739ms total)
T0854 001:475 JLINK_WriteReg(PSP, 0x20001000)  returns 0x00 (0000ms, 0739ms total)
T0854 001:475 JLINK_WriteReg(CFBP, 0x00000000)  returns 0x00 (0000ms, 0739ms total)
T0854 001:475 JLINK_SetBPEx(Addr = 0x20000000, Type = 0xFFFFFFF2)  returns 0x0000000F (0000ms, 0739ms total)
T0854 001:475 JLINK_Go() (0002ms, 0741ms total)
T0854 001:477 JLINK_IsHalted()  returns FALSE (0000ms, 0741ms total)
T0854 001:483 JLINK_IsHalted()  returns FALSE (0001ms, 0742ms total)
T0854 001:486 JLINK_IsHalted()  returns FALSE (0000ms, 0741ms total)
T0854 001:488 JLINK_IsHalted()  returns FALSE (0000ms, 0741ms total)
T0854 001:490 JLINK_IsHalted()  returns FALSE (0000ms, 0741ms total)
T0854 001:492 JLINK_IsHalted()  returns FALSE (0000ms, 0741ms total)
T0854 001:494 JLINK_IsHalted()  returns FALSE (0000ms, 0741ms total)
